Circuit: *two bjts are used

Direct Newton iteration for .op point succeeded.
Semiconductor Device Operating Points:
                        --- Bipolar Transistors ---
Name:       q2          q1
Model:     qmodp       qmodn
Ib:      -2.83e-06    3.08e-06
Ic:      -2.83e-04    3.08e-04
Vbe:     -7.42e-01    7.44e-01
Vbc:      3.01e+00   -2.10e+00
Vce:     -3.75e+00    2.85e+00
BetaDC:   1.00e+02    1.00e+02
Gm:       1.09e-02    1.19e-02
Rpi:      9.14e+03    8.39e+03
Rx:       0.00e+00    0.00e+00
Ro:       8.06e+64    5.12e+49
Cbe:      0.00e+00    0.00e+00
Cbc:      0.00e+00    0.00e+00
Cjs:      0.00e+00    0.00e+00
BetaAC:   1.00e+02    1.00e+02
Cbx:      0.00e+00    0.00e+00
Ft:       0.00e+00    0.00e+00



Date: Tue Jul 16 22:22:35 2019
Total elapsed time: 0.033 seconds.

tnom = 27
temp = 27
method = trap
totiter = 8
traniter = 0
tranpoints = 0
accept = 0
rejected = 0
matrix size = 7
fillins = 0
solver = Normal
Matrix Compiler1: 446 bytes object code size
Matrix Compiler2: 603 bytes object code size
